T08C0 214:567 SEGGER J-Link V6.40 Log File (0000ms, 3319ms total)
T08C0 214:567 DLL Compiled: Oct 26 2018 15:06:02 (0000ms, 3319ms total)
T08C0 214:567 Logging started @ 2022-11-24 09:14 (0000ms, 3319ms total)
T08C0 214:567 JLINK_SetWarnOutHandler(...) (0000ms, 3319ms total)
T08C0 214:567 JLINK_OpenEx(...)
Firmware: J-Link V9 compiled May  7 2021 16:26:12
Hardware: V9.60
S/N: 69664479
Feature(s): RDI, GDB, FlashDL, FlashBP, JFlash
TELNET listener socket opened on port 19021Device "CORTEX-M4" selected.WEBSRV 
Starting webserver (0019ms, 3338ms total)
T08C0 214:567 WEBSRV Webserver running on local port 19080 (0020ms, 3339ms total)
T08C0 214:567   returns O.K. (0020ms, 3339ms total)
T08C0 214:587 JLINK_GetEmuCaps()  returns 0xB9FF7BBF (0000ms, 3339ms total)
T08C0 214:587 JLINK_TIF_GetAvailable(...) (0001ms, 3340ms total)
T08C0 214:588 JLINK_SetErrorOutHandler(...) (0000ms, 3340ms total)
T08C0 214:588 JLINK_ExecCommand("ProjectFile = "G:\lww\AT32F413_Firmware_Library_V2.0.7\utilities\at32f413_freertos_demo\mdk_v5\JLinkSettings.ini"", ...). Device "CORTEX-M4" selected.  returns 0x00 (0001ms, 3341ms total)
T08C0 214:589 JLINK_ExecCommand("Device = -AT32F413CCU7", ...). Device "CORTEX-M4" selected.  returns 0x00 (0001ms, 3342ms total)
T08C0 214:590 JLINK_ExecCommand("DisableConnectionTimeout", ...).   returns 0x01 (0000ms, 3342ms total)
T08C0 214:590 JLINK_GetHardwareVersion()  returns 0x17700 (0000ms, 3342ms total)
T08C0 214:590 JLINK_GetDLLVersion()  returns 64000 (0000ms, 3342ms total)
T08C0 214:590 JLINK_GetFirmwareString(...) (0000ms, 3342ms total)
T08C0 214:590 JLINK_GetDLLVersion()  returns 64000 (0000ms, 3342ms total)
T08C0 214:590 JLINK_GetCompileDateTime() (0000ms, 3342ms total)
T08C0 214:590 JLINK_GetFirmwareString(...) (0000ms, 3342ms total)
T08C0 214:590 JLINK_GetHardwareVersion()  returns 0x17700 (0000ms, 3342ms total)
T08C0 214:590 JLINK_TIF_Select(JLINKARM_TIF_SWD)  returns 0x00 (0002ms, 3344ms total)
T08C0 214:592 JLINK_SetSpeed(2000) (0000ms, 3344ms total)
T08C0 214:592 JLINK_GetId() >0x10B TIF>Found SW-DP with ID 0x2BA01477 >0x0D TIF> >0x28 TIF> >0x0D TIF> >0x28 TIF> >0x0D TIF> >0x28 TIF> >0x0D TIF> >0x28 TIF> >0x0D TIF> >0x21 TIF> >0x0D TIF> >0x28 TIF>Scanning AP map to find all available APs >0x0D TIF> >0x28 TIF> >0x0D TIF> >0x21 TIF> >0x0D TIF> >0x21 TIF> >0x0D TIF> >0x28 TIF> >0x0D TIF> >0x21 TIF> >0x0D TIF> >0x21 TIF>AP[1]: Stopped AP scan as end of AP map has been reachedAP[0]: AHB-AP (IDR: 0x24770011)Iterating through AP map to find AHB-AP to use
 >0x42 TIF> >0x28 TIF> >0x0D TIF> >0x28 TIF> >0x0D TIF> >0x21 TIF> >0x0D TIF> >0x21 TIF> >0x42 TIF> >0x28 TIF> >0x0D TIF> >0x28 TIF> >0x0D TIF> >0x28 TIF> >0x0D TIF> >0x21 TIF> >0x0D TIF> >0x21 TIF>AP[0]: Core foundAP[0]: AHB-AP ROM base: 0xE00FF000 >0x0D TIF> >0x28 TIF> >0x0D TIF> >0x28 TIF> >0x0D TIF> >0x28 TIF> >0x0D TIF> >0x21 TIF> >0x0D TIF> >0x21 TIF>CPUID register: 0x410FC241. Implementer code: 0x41 (ARM)Found Cortex-M4 r0p1, Little endian. -- Max. mem block: 0x00010E08
 -- CPU_ReadMem(4 bytes @ 0xE000EDF0) -- CPU_WriteMem(4 bytes @ 0xE000EDF0) -- CPU_ReadMem(4 bytes @ 0xE0002000)FPUnit: 6 code (BP) slots and 2 literal slots -- CPU_ReadMem(4 bytes @ 0xE000EDFC) -- CPU_WriteMem(4 bytes @ 0xE000EDFC) -- CPU_ReadMem(4 bytes @ 0xE0001000) -- CPU_WriteMem(4 bytes @ 0xE0001000) -- CPU_ReadMem(4 bytes @ 0xE000ED88) -- CPU_WriteMem(4 bytes @ 0xE000ED88) -- CPU_ReadMem(4 bytes @ 0xE000ED88) -- CPU_WriteMem(4 bytes @ 0xE000ED88)CoreSight components:ROMTbl[0] @ E00FF000
 -- CPU_ReadMem(16 bytes @ 0xE00FF000) -- CPU_ReadMem(16 bytes @ 0xE000EFF0) -- CPU_ReadMem(16 bytes @ 0xE000EFE0)ROMTbl[0][0]: E000E000, CID: B105E00D, PID: 000BB00C SCS-M7 -- CPU_ReadMem(16 bytes @ 0xE0001FF0) -- CPU_ReadMem(16 bytes @ 0xE0001FE0)ROMTbl[0][1]: E0001000, CID: B105E00D, PID: 003BB002 DWT -- CPU_ReadMem(16 bytes @ 0xE0002FF0) -- CPU_ReadMem(16 bytes @ 0xE0002FE0)ROMTbl[0][2]: E0002000, CID: B105E00D, PID: 002BB003 FPB -- CPU_ReadMem(16 bytes @ 0xE0000FF0)
 -- CPU_ReadMem(16 bytes @ 0xE0000FE0)ROMTbl[0][3]: E0000000, CID: B105E00D, PID: 003BB001 ITM -- CPU_ReadMem(16 bytes @ 0xE00FF010) -- CPU_ReadMem(16 bytes @ 0xE0040FF0) -- CPU_ReadMem(16 bytes @ 0xE0040FE0)ROMTbl[0][4]: E0040000, CID: B105900D, PID: 000BB9A1 TPIU -- CPU_ReadMem(16 bytes @ 0xE0041FF0) -- CPU_ReadMem(16 bytes @ 0xE0041FE0)ROMTbl[0][5]: E0041000, CID: B105900D, PID: 000BB925 ETM >0x0D TIF> >0x21 TIF>  returns 0x2BA01477 (0146ms, 3490ms total)
T08C0 214:738 JLINK_GetDLLVersion()  returns 64000 (0000ms, 3490ms total)
T08C0 214:738 JLINK_CORE_GetFound()  returns 0xE0000FF (0000ms, 3490ms total)
T08C0 214:738 JLINK_GetDebugInfo(0x100 = JLINKARM_ROM_TABLE_ADDR_INDEX) -- Value=0xE00FF000  returns 0x00 (0000ms, 3490ms total)
T08C0 214:738 JLINK_GetDebugInfo(0x100 = JLINKARM_ROM_TABLE_ADDR_INDEX) -- Value=0xE00FF000  returns 0x00 (0000ms, 3490ms total)
T08C0 214:738 JLINK_GetDebugInfo(0x101 = JLINKARM_DEBUG_INFO_ETM_ADDR_INDEX) -- Value=0xE0041000  returns 0x00 (0000ms, 3490ms total)
T08C0 214:738 JLINK_ReadMemEx(0xE0041FD0, 0x0020 Bytes, ..., Flags = 0x02000004) -- CPU_ReadMem(32 bytes @ 0xE0041FD0) - Data: 04 00 00 00 00 00 00 00 00 00 00 00 00 00 00 00 ...  returns 0x20 (0001ms, 3491ms total)
T08C0 214:739 JLINK_GetDebugInfo(0x102 = JLINKARM_DEBUG_INFO_MTB_ADDR_INDEX) -- Value=0x00000000  returns 0x00 (0000ms, 3491ms total)
T08C0 214:739 JLINK_GetDebugInfo(0x103 = JLINKARM_DEBUG_INFO_TPIU_ADDR_INDEX) -- Value=0xE0040000  returns 0x00 (0000ms, 3491ms total)
T08C0 214:739 JLINK_GetDebugInfo(0x104 = JLINKARM_DEBUG_INFO_ITM_ADDR_INDEX) -- Value=0xE0000000  returns 0x00 (0000ms, 3491ms total)
T08C0 214:739 JLINK_GetDebugInfo(0x105 = JLINKARM_DEBUG_INFO_DWT_ADDR_INDEX) -- Value=0xE0001000  returns 0x00 (0000ms, 3491ms total)
T08C0 214:739 JLINK_GetDebugInfo(0x106 = JLINKARM_DEBUG_INFO_FPB_ADDR_INDEX) -- Value=0xE0002000  returns 0x00 (0000ms, 3491ms total)
T08C0 214:739 JLINK_GetDebugInfo(0x107 = JLINKARM_DEBUG_INFO_NVIC_ADDR_INDEX) -- Value=0xE000E000  returns 0x00 (0000ms, 3491ms total)
T08C0 214:739 JLINK_GetDebugInfo(0x10C = JLINKARM_DEBUG_INFO_DBG_ADDR_INDEX) -- Value=0xE000EDF0  returns 0x00 (0000ms, 3491ms total)
T08C0 214:739 JLINK_GetDebugInfo(0x01 = Unknown) -- Value=0x00000001  returns 0x00 (0000ms, 3491ms total)
T08C0 214:739 JLINK_ReadMemU32(0xE000ED00, 0x0001 Items, ...) -- CPU_ReadMem(4 bytes @ 0xE000ED00) - Data: 41 C2 0F 41  returns 1 (0001ms, 3492ms total)
T08C0 214:740 JLINK_GetDebugInfo(0x10F = JLINKARM_DEBUG_INFO_HAS_CORTEX_M_SECURITY_EXT_INDEX) -- Value=0x00000000  returns 0x00 (0000ms, 3492ms total)
T08C0 214:740 JLINK_SetResetType(JLINKARM_CM3_RESET_TYPE_NORMAL)  returns JLINKARM_CM3_RESET_TYPE_NORMAL (0000ms, 3492ms total)
T08C0 214:740 JLINK_Reset() -- CPU is running -- CPU_WriteMem(4 bytes @ 0xE000EDF0) -- CPU is running -- CPU_WriteMem(4 bytes @ 0xE000EDFC)Reset: Halt core after reset via DEMCR.VC_CORERESET. >0x35 TIF>Reset: Reset device via AIRCR.SYSRESETREQ. -- CPU is running -- CPU_WriteMem(4 bytes @ 0xE000ED0C) >0x0D TIF> >0x28 TIF> -- CPU_ReadMem(4 bytes @ 0xE000EDF0) -- CPU_ReadMem(4 bytes @ 0xE000EDF0) -- CPU is running -- CPU_WriteMem(4 bytes @ 0xE000EDF0) -- CPU is running -- CPU_WriteMem(4 bytes @ 0xE000EDFC)
 -- CPU_ReadMem(4 bytes @ 0xE000EDF0) -- CPU_WriteMem(4 bytes @ 0xE0002000) -- CPU_ReadMem(4 bytes @ 0xE000EDFC) -- CPU_ReadMem(4 bytes @ 0xE0001000) (0073ms, 3565ms total)
T08C0 214:813 JLINK_ReadReg(R15 (PC))  returns 0x080002D0 (0000ms, 3565ms total)
T08C0 214:813 JLINK_ReadReg(XPSR)  returns 0x01000000 (0000ms, 3565ms total)
T08C0 214:813 JLINK_Halt()  returns 0x00 (0000ms, 3565ms total)
T08C0 214:813 JLINK_ReadMemU32(0xE000EDF0, 0x0001 Items, ...) -- CPU_ReadMem(4 bytes @ 0xE000EDF0) - Data: 03 00 03 00  returns 1 (0001ms, 3566ms total)
T08C0 214:814 JLINK_WriteU32(0xE000EDF0, 0xA05F0003) -- CPU_WriteMem(4 bytes @ 0xE000EDF0)  returns 0 (0001ms, 3567ms total)
T08C0 214:815 JLINK_WriteU32(0xE000EDFC, 0x01000000) -- CPU_WriteMem(4 bytes @ 0xE000EDFC)  returns 0 (0000ms, 3567ms total)
T08C0 214:816 JLINK_GetHWStatus(...)  returns 0x00 (0000ms, 3567ms total)
T08C0 214:816 JLINK_GetNumBPUnits(Type = 0xFFFFFF00)  returns 0x06 (0000ms, 3567ms total)
T08C0 214:816 JLINK_GetNumBPUnits(Type = 0xF0)  returns 0x2000 (0000ms, 3567ms total)
T08C0 214:816 JLINK_GetNumWPUnits()  returns 0x04 (0000ms, 3567ms total)
T08C0 214:816 JLINK_GetSpeed()  returns 0x7D0 (0000ms, 3567ms total)
T08C0 214:816 JLINK_ReadMemU32(0xE000E004, 0x0001 Items, ...) -- CPU_ReadMem(4 bytes @ 0xE000E004) - Data: 02 00 00 00  returns 1 (0000ms, 3567ms total)
T08C0 214:816 JLINK_ReadMemU32(0xE000E004, 0x0001 Items, ...) -- CPU_ReadMem(4 bytes @ 0xE000E004) - Data: 02 00 00 00  returns 1 (0001ms, 3568ms total)
T08C0 214:817 JLINK_WriteMemEx(0xE0001000, 0x001C Bytes, ..., Flags = 0x02000004) - Data: 01 00 00 00 00 00 00 00 00 00 00 00 00 00 00 00 ... -- CPU_WriteMem(28 bytes @ 0xE0001000)  returns 0x1C (0001ms, 3569ms total)
T08C0 214:818 JLINK_ReadReg(R15 (PC))  returns 0x080002D0 (0000ms, 3569ms total)
T08C0 214:818 JLINK_ReadReg(XPSR)  returns 0x01000000 (0000ms, 3569ms total)
T08C0 214:820 JLINK_ReadMemEx(0xE0001004, 0x0004 Bytes, ..., Flags = 0x02000000) - Data: 00 00 00 00  returns 0x04 (0001ms, 3570ms total)
T08C0 214:829 JLINK_WriteMemEx(0x08000000, 0x1000 Bytes, ..., Flags = 0x02000000) - Data: E0 27 00 20 D1 02 00 08 2B 04 00 08 23 04 00 08 ... -- CPU_WriteMem(4096 bytes @ 0x08000000)  returns 0x1000 (0027ms, 3597ms total)
T08C0 214:857 JLINK_WriteMemEx(0x08001000, 0x0D4C Bytes, ..., Flags = 0x02000000) - Data: 7E D1 3C B3 04 F1 08 00 A0 42 23 D9 08 34 04 F0 ... -- CPU_WriteMem(3404 bytes @ 0x08001000)  returns 0xD4C (0023ms, 3620ms total)
T08C0 214:938 JLINK_SetResetType(JLINKARM_CM3_RESET_TYPE_NORMAL)  returns JLINKARM_CM3_RESET_TYPE_NORMAL (0000ms, 3620ms total)
T08C0 214:938 JLINK_Reset() -- CPU_WriteMem(4 bytes @ 0xE000EDF0) -- CPU_WriteMem(4 bytes @ 0xE000EDFC)Reset: Halt core after reset via DEMCR.VC_CORERESET. >0x35 TIF>Reset: Reset device via AIRCR.SYSRESETREQ. -- CPU_WriteMem(4 bytes @ 0xE000ED0C) >0x0D TIF> >0x28 TIF> -- CPU_ReadMem(4 bytes @ 0xE000EDF0) -- CPU_ReadMem(4 bytes @ 0xE000EDF0) -- CPU_WriteMem(4 bytes @ 0xE000EDF0) -- CPU_WriteMem(4 bytes @ 0xE000EDFC) -- CPU_ReadMem(4 bytes @ 0xE000EDF0) -- CPU_WriteMem(4 bytes @ 0xE0002000)
 -- CPU_ReadMem(4 bytes @ 0xE000EDFC) -- CPU_ReadMem(4 bytes @ 0xE0001000) (0075ms, 3695ms total)
T08C0 215:013 JLINK_ReadReg(R15 (PC))  returns 0x080002D0 (0000ms, 3695ms total)
T08C0 215:013 JLINK_ReadReg(XPSR)  returns 0x01000000 (0000ms, 3695ms total)
T08C0 215:013 JLINK_ReadMemEx(0x080002D0, 0x003C Bytes, ..., Flags = 0x02000000) -- CPU_ReadMem(60 bytes @ 0x080002D0) - Data: 09 48 80 47 09 48 00 47 FE E7 FE E7 FE E7 FE E7 ...  returns 0x3C (0001ms, 3696ms total)
T08C0 215:014 JLINK_ReadMemEx(0x080002D0, 0x0002 Bytes, ..., Flags = 0x02000000) -- CPU_ReadMem(2 bytes @ 0x080002D0) - Data: 09 48  returns 0x02 (0002ms, 3698ms total)
T08C0 215:016 JLINK_ReadMemEx(0x080002D2, 0x0002 Bytes, ..., Flags = 0x02000000) -- CPU_ReadMem(2 bytes @ 0x080002D2) - Data: 80 47  returns 0x02 (0000ms, 3698ms total)
T08C0 215:016 JLINK_ReadMemEx(0x080002D2, 0x0002 Bytes, ..., Flags = 0x02000000) -- CPU_ReadMem(2 bytes @ 0x080002D2) - Data: 80 47  returns 0x02 (0001ms, 3699ms total)
T08C0 215:017 JLINK_ReadMemEx(0x080002D4, 0x003C Bytes, ..., Flags = 0x02000000) -- CPU_ReadMem(60 bytes @ 0x080002D4) - Data: 09 48 00 47 FE E7 FE E7 FE E7 FE E7 FE E7 FE E7 ...  returns 0x3C (0001ms, 3700ms total)
T08C0 215:018 JLINK_ReadMemEx(0x080002D4, 0x0002 Bytes, ..., Flags = 0x02000000) -- CPU_ReadMem(2 bytes @ 0x080002D4) - Data: 09 48  returns 0x02 (0001ms, 3701ms total)
T08C0 215:871 JLINK_ReadMemEx(0x080002D4, 0x003C Bytes, ..., Flags = 0x02000000) -- CPU_ReadMem(60 bytes @ 0x080002D4) - Data: 09 48 00 47 FE E7 FE E7 FE E7 FE E7 FE E7 FE E7 ...  returns 0x3C (0002ms, 3703ms total)
T08C0 215:873 JLINK_ReadMemEx(0x080002D4, 0x0002 Bytes, ..., Flags = 0x02000000) -- CPU_ReadMem(2 bytes @ 0x080002D4) - Data: 09 48  returns 0x02 (0000ms, 3703ms total)
T08C0 215:873 JLINK_ReadMemEx(0x080002D6, 0x0002 Bytes, ..., Flags = 0x02000000) -- CPU_ReadMem(2 bytes @ 0x080002D6) - Data: 00 47  returns 0x02 (0001ms, 3704ms total)
T0BA0 216:089 JLINK_ReadMemEx(0x080002D0, 0x0002 Bytes, ..., Flags = 0x02000000) -- CPU_ReadMem(2 bytes @ 0x080002D0) - Data: 09 48  returns 0x02 (0001ms, 3705ms total)
T0BA0 216:090 JLINK_SetBPEx(Addr = 0x08000A74, Type = 0xFFFFFFF2)  returns 0x00000001 (0000ms, 3705ms total)
T0BA0 216:090 JLINK_Go() -- CPU_WriteMem(4 bytes @ 0xE0002000) -- CPU_ReadMem(4 bytes @ 0xE0001000) -- CPU_WriteMem(4 bytes @ 0xE0002008) -- CPU_WriteMem(4 bytes @ 0xE000200C) -- CPU_WriteMem(4 bytes @ 0xE0002010) -- CPU_WriteMem(4 bytes @ 0xE0002014) -- CPU_WriteMem(4 bytes @ 0xE0002018) -- CPU_WriteMem(4 bytes @ 0xE000201C) -- CPU_WriteMem(4 bytes @ 0xE0001004) (0006ms, 3711ms total)
T0BA0 216:196 JLINK_IsHalted()  returns TRUE (0004ms, 3715ms total)
T0BA0 216:200 JLINK_Halt()  returns 0x00 (0000ms, 3711ms total)
T0BA0 216:200 JLINK_IsHalted()  returns TRUE (0000ms, 3711ms total)
T0BA0 216:200 JLINK_IsHalted()  returns TRUE (0000ms, 3711ms total)
T0BA0 216:200 JLINK_IsHalted()  returns TRUE (0000ms, 3711ms total)
T0BA0 216:200 JLINK_ReadReg(R15 (PC))  returns 0x08000A74 (0000ms, 3711ms total)
T0BA0 216:200 JLINK_ReadReg(XPSR)  returns 0x21000000 (0000ms, 3711ms total)
T0BA0 216:200 JLINK_ClrBPEx(BPHandle = 0x00000001)  returns 0x00 (0000ms, 3711ms total)
T0BA0 216:200 JLINK_ReadMemU32(0xE000ED30, 0x0001 Items, ...) -- CPU_ReadMem(4 bytes @ 0xE000ED30) - Data: 02 00 00 00  returns 1 (0001ms, 3712ms total)
T0BA0 216:201 JLINK_ReadMemU32(0xE0001028, 0x0001 Items, ...) -- CPU_ReadMem(4 bytes @ 0xE0001028) - Data: 00 00 00 00  returns 1 (0000ms, 3712ms total)
T0BA0 216:201 JLINK_ReadMemU32(0xE0001038, 0x0001 Items, ...) -- CPU_ReadMem(4 bytes @ 0xE0001038) - Data: 00 02 00 00  returns 1 (0001ms, 3713ms total)
T0BA0 216:202 JLINK_ReadMemU32(0xE0001048, 0x0001 Items, ...) -- CPU_ReadMem(4 bytes @ 0xE0001048) - Data: 00 00 00 00  returns 1 (0001ms, 3714ms total)
T0BA0 216:203 JLINK_ReadMemU32(0xE0001058, 0x0001 Items, ...) -- CPU_ReadMem(4 bytes @ 0xE0001058) - Data: 00 00 00 00  returns 1 (0001ms, 3715ms total)
T0BA0 216:204 JLINK_ReadReg(R0)  returns 0x200021E0 (0000ms, 3715ms total)
T0BA0 216:204 JLINK_ReadReg(R1)  returns 0x200023E0 (0000ms, 3715ms total)
T0BA0 216:204 JLINK_ReadReg(R2)  returns 0x200023E0 (0000ms, 3715ms total)
T0BA0 216:204 JLINK_ReadReg(R3)  returns 0x200023E0 (0000ms, 3715ms total)
T0BA0 216:204 JLINK_ReadReg(R4)  returns 0x00000000 (0000ms, 3715ms total)
T0BA0 216:204 JLINK_ReadReg(R5)  returns 0x20002180 (0000ms, 3715ms total)
T0BA0 216:204 JLINK_ReadReg(R6)  returns 0x00000000 (0000ms, 3715ms total)
T0BA0 216:204 JLINK_ReadReg(R7)  returns 0x00000000 (0000ms, 3715ms total)
T0BA0 216:204 JLINK_ReadReg(R8)  returns 0x00000000 (0000ms, 3715ms total)
T0BA0 216:204 JLINK_ReadReg(R9)  returns 0x00000000 (0000ms, 3715ms total)
T0BA0 216:204 JLINK_ReadReg(R10)  returns 0x08001C94 (0000ms, 3715ms total)
T0BA0 216:204 JLINK_ReadReg(R11)  returns 0x00000000 (0000ms, 3715ms total)
T0BA0 216:204 JLINK_ReadReg(R12)  returns 0x200021C0 (0000ms, 3715ms total)
T0BA0 216:204 JLINK_ReadReg(R13 (SP))  returns 0x200027E0 (0000ms, 3715ms total)
T0BA0 216:204 JLINK_ReadReg(R14)  returns 0x080001FF (0000ms, 3715ms total)
T0BA0 216:204 JLINK_ReadReg(R15 (PC))  returns 0x08000A74 (0000ms, 3715ms total)
T0BA0 216:204 JLINK_ReadReg(XPSR)  returns 0x21000000 (0000ms, 3715ms total)
T0BA0 216:204 JLINK_ReadReg(MSP)  returns 0x200027E0 (0000ms, 3715ms total)
T0BA0 216:204 JLINK_ReadReg(PSP)  returns 0x00000000 (0000ms, 3715ms total)
T0BA0 216:204 JLINK_ReadReg(CFBP)  returns 0x04000000 (0000ms, 3715ms total)
T0BA0 216:204 JLINK_ReadReg(FPSCR)  returns 0x03000000 (0007ms, 3722ms total)
T0BA0 216:211 JLINK_ReadReg(FPS0)  returns 0x00000000 (0000ms, 3722ms total)
T0BA0 216:211 JLINK_ReadReg(FPS1)  returns 0x00000000 (0000ms, 3722ms total)
T0BA0 216:211 JLINK_ReadReg(FPS2)  returns 0x00000000 (0000ms, 3722ms total)
T0BA0 216:211 JLINK_ReadReg(FPS3)  returns 0x00000000 (0000ms, 3722ms total)
T0BA0 216:211 JLINK_ReadReg(FPS4)  returns 0x00000000 (0000ms, 3722ms total)
T0BA0 216:211 JLINK_ReadReg(FPS5)  returns 0x00000000 (0000ms, 3722ms total)
T0BA0 216:211 JLINK_ReadReg(FPS6)  returns 0x00000000 (0000ms, 3722ms total)
T0BA0 216:211 JLINK_ReadReg(FPS7)  returns 0x00000000 (0000ms, 3722ms total)
T0BA0 216:211 JLINK_ReadReg(FPS8)  returns 0x00000000 (0000ms, 3722ms total)
T0BA0 216:211 JLINK_ReadReg(FPS9)  returns 0x00000000 (0000ms, 3722ms total)
T0BA0 216:211 JLINK_ReadReg(FPS10)  returns 0x00000000 (0000ms, 3722ms total)
T0BA0 216:211 JLINK_ReadReg(FPS11)  returns 0x00000000 (0000ms, 3722ms total)
T0BA0 216:211 JLINK_ReadReg(FPS12)  returns 0x00000000 (0000ms, 3722ms total)
T0BA0 216:211 JLINK_ReadReg(FPS13)  returns 0x00000000 (0000ms, 3722ms total)
T0BA0 216:211 JLINK_ReadReg(FPS14)  returns 0x00000000 (0000ms, 3722ms total)
T0BA0 216:211 JLINK_ReadReg(FPS15)  returns 0x00000000 (0000ms, 3722ms total)
T0BA0 216:211 JLINK_ReadReg(FPS16)  returns 0x00000000 (0000ms, 3722ms total)
T0BA0 216:211 JLINK_ReadReg(FPS17)  returns 0x00000000 (0000ms, 3722ms total)
T0BA0 216:211 JLINK_ReadReg(FPS18)  returns 0x00000000 (0000ms, 3722ms total)
T0BA0 216:211 JLINK_ReadReg(FPS19)  returns 0x00000000 (0000ms, 3722ms total)
T0BA0 216:211 JLINK_ReadReg(FPS20)  returns 0x00000000 (0000ms, 3722ms total)
T0BA0 216:211 JLINK_ReadReg(FPS21)  returns 0x00000000 (0000ms, 3722ms total)
T0BA0 216:211 JLINK_ReadReg(FPS22)  returns 0x00000000 (0000ms, 3722ms total)
T0BA0 216:211 JLINK_ReadReg(FPS23)  returns 0x00000000 (0000ms, 3722ms total)
T0BA0 216:211 JLINK_ReadReg(FPS24)  returns 0x00000000 (0000ms, 3722ms total)
T0BA0 216:211 JLINK_ReadReg(FPS25)  returns 0x00000000 (0000ms, 3722ms total)
T0BA0 216:211 JLINK_ReadReg(FPS26)  returns 0x00000000 (0000ms, 3722ms total)
T0BA0 216:211 JLINK_ReadReg(FPS27)  returns 0x00000000 (0000ms, 3722ms total)
T0BA0 216:211 JLINK_ReadReg(FPS28)  returns 0x00000000 (0000ms, 3722ms total)
T0BA0 216:211 JLINK_ReadReg(FPS29)  returns 0x00000000 (0000ms, 3722ms total)
T0BA0 216:211 JLINK_ReadReg(FPS30)  returns 0x00000000 (0000ms, 3722ms total)
T0BA0 216:211 JLINK_ReadReg(FPS31)  returns 0x00000000 (0000ms, 3722ms total)
T08C0 216:215 JLINK_ReadMemU32(0xE0001004, 0x0001 Items, ...) -- CPU_ReadMem(4 bytes @ 0xE0001004) - Data: CA 17 00 00  returns 1 (0000ms, 3722ms total)
T08C0 216:215 JLINK_ReadMemEx(0x08000A74, 0x003C Bytes, ..., Flags = 0x02000000) -- CPU_ReadMem(128 bytes @ 0x08000A40) -- Updating DA cache (128 bytes @ 0x08000A40) -- Read from DA cache (60 bytes @ 0x08000A74) - Data: 1C B5 03 20 00 F0 80 F8 00 F0 7C FB 01 20 FF F7 ...  returns 0x3C (0002ms, 3724ms total)
T08C0 216:217 JLINK_ReadMemEx(0x08000A74, 0x0002 Bytes, ..., Flags = 0x02000000) -- Read from DA cache (2 bytes @ 0x08000A74) - Data: 1C B5  returns 0x02 (0000ms, 3724ms total)
T08C0 216:217 JLINK_ReadMemEx(0x08000A76, 0x0002 Bytes, ..., Flags = 0x02000000) -- Read from DA cache (2 bytes @ 0x08000A76) - Data: 03 20  returns 0x02 (0000ms, 3724ms total)
T08C0 216:217 JLINK_ReadMemEx(0x08000A76, 0x0002 Bytes, ..., Flags = 0x02000000) -- Read from DA cache (2 bytes @ 0x08000A76) - Data: 03 20  returns 0x02 (0000ms, 3724ms total)
T08C0 216:217 JLINK_ReadMemEx(0x08000A78, 0x003C Bytes, ..., Flags = 0x02000000) -- Read from DA cache (60 bytes @ 0x08000A78) - Data: 00 F0 80 F8 00 F0 7C FB 01 20 FF F7 29 FD 00 20 ...  returns 0x3C (0000ms, 3724ms total)
T08C0 216:217 JLINK_ReadMemEx(0x08000A78, 0x0002 Bytes, ..., Flags = 0x02000000) -- Read from DA cache (2 bytes @ 0x08000A78) - Data: 00 F0  returns 0x02 (0000ms, 3724ms total)
T0BA0 217:341 JLINK_ReadMemEx(0x08000A74, 0x0002 Bytes, ..., Flags = 0x02000000) -- Read from DA cache (2 bytes @ 0x08000A74) - Data: 1C B5  returns 0x02 (0000ms, 3724ms total)
T0BA0 217:341 JLINK_Step() -- Read from DA cache (2 bytes @ 0x08000A74) -- CPU_ReadMem(4 bytes @ 0xE000ED18) -- CPU_WriteMem(4 bytes @ 0xE000ED18) -- CPU_ReadMem(4 bytes @ 0xE000ED18) -- CPU_WriteMem(4 bytes @ 0xE000ED18) -- Not simulated -- CPU_WriteMem(4 bytes @ 0xE0002008)  returns 0x00 (0010ms, 3734ms total)
T0BA0 217:351 JLINK_ReadReg(R15 (PC))  returns 0x08000A76 (0000ms, 3734ms total)
T0BA0 217:351 JLINK_ReadReg(XPSR)  returns 0x21000000 (0000ms, 3734ms total)
T0BA0 217:351 JLINK_ReadReg(R0)  returns 0x200021E0 (0000ms, 3734ms total)
T0BA0 217:351 JLINK_ReadReg(R1)  returns 0x200023E0 (0000ms, 3734ms total)
T0BA0 217:351 JLINK_ReadReg(R2)  returns 0x200023E0 (0000ms, 3734ms total)
T0BA0 217:351 JLINK_ReadReg(R3)  returns 0x200023E0 (0000ms, 3734ms total)
T0BA0 217:351 JLINK_ReadReg(R4)  returns 0x00000000 (0000ms, 3734ms total)
T0BA0 217:351 JLINK_ReadReg(R5)  returns 0x20002180 (0000ms, 3734ms total)
T0BA0 217:351 JLINK_ReadReg(R6)  returns 0x00000000 (0000ms, 3734ms total)
T0BA0 217:351 JLINK_ReadReg(R7)  returns 0x00000000 (0000ms, 3734ms total)
T0BA0 217:351 JLINK_ReadReg(R8)  returns 0x00000000 (0000ms, 3734ms total)
T0BA0 217:351 JLINK_ReadReg(R9)  returns 0x00000000 (0000ms, 3734ms total)
T0BA0 217:351 JLINK_ReadReg(R10)  returns 0x08001C94 (0000ms, 3734ms total)
T0BA0 217:351 JLINK_ReadReg(R11)  returns 0x00000000 (0000ms, 3734ms total)
T0BA0 217:351 JLINK_ReadReg(R12)  returns 0x200021C0 (0000ms, 3734ms total)
T0BA0 217:351 JLINK_ReadReg(R13 (SP))  returns 0x200027D0 (0000ms, 3734ms total)
T0BA0 217:351 JLINK_ReadReg(R14)  returns 0x080001FF (0000ms, 3734ms total)
T0BA0 217:351 JLINK_ReadReg(R15 (PC))  returns 0x08000A76 (0000ms, 3734ms total)
T0BA0 217:352 JLINK_ReadReg(XPSR)  returns 0x21000000 (0000ms, 3735ms total)
T0BA0 217:352 JLINK_ReadReg(MSP)  returns 0x200027D0 (0000ms, 3735ms total)
T0BA0 217:352 JLINK_ReadReg(PSP)  returns 0x00000000 (0000ms, 3735ms total)
T0BA0 217:352 JLINK_ReadReg(CFBP)  returns 0x04000000 (0000ms, 3735ms total)
T0BA0 217:352 JLINK_ReadReg(FPSCR)  returns 0x03000000 (0007ms, 3742ms total)
T0BA0 217:359 JLINK_ReadReg(FPS0)  returns 0x00000000 (0000ms, 3742ms total)
T0BA0 217:359 JLINK_ReadReg(FPS1)  returns 0x00000000 (0000ms, 3742ms total)
T0BA0 217:359 JLINK_ReadReg(FPS2)  returns 0x00000000 (0000ms, 3742ms total)
T0BA0 217:359 JLINK_ReadReg(FPS3)  returns 0x00000000 (0000ms, 3742ms total)
T0BA0 217:359 JLINK_ReadReg(FPS4)  returns 0x00000000 (0000ms, 3742ms total)
T0BA0 217:359 JLINK_ReadReg(FPS5)  returns 0x00000000 (0000ms, 3742ms total)
T0BA0 217:359 JLINK_ReadReg(FPS6)  returns 0x00000000 (0000ms, 3742ms total)
T0BA0 217:359 JLINK_ReadReg(FPS7)  returns 0x00000000 (0000ms, 3742ms total)
T0BA0 217:359 JLINK_ReadReg(FPS8)  returns 0x00000000 (0000ms, 3742ms total)
T0BA0 217:359 JLINK_ReadReg(FPS9)  returns 0x00000000 (0000ms, 3742ms total)
T0BA0 217:359 JLINK_ReadReg(FPS10)  returns 0x00000000 (0000ms, 3742ms total)
T0BA0 217:359 JLINK_ReadReg(FPS11)  returns 0x00000000 (0000ms, 3742ms total)
T0BA0 217:359 JLINK_ReadReg(FPS12)  returns 0x00000000 (0000ms, 3742ms total)
T0BA0 217:359 JLINK_ReadReg(FPS13)  returns 0x00000000 (0000ms, 3742ms total)
T0BA0 217:359 JLINK_ReadReg(FPS14)  returns 0x00000000 (0000ms, 3742ms total)
T0BA0 217:359 JLINK_ReadReg(FPS15)  returns 0x00000000 (0000ms, 3742ms total)
T0BA0 217:359 JLINK_ReadReg(FPS16)  returns 0x00000000 (0000ms, 3742ms total)
T0BA0 217:359 JLINK_ReadReg(FPS17)  returns 0x00000000 (0000ms, 3742ms total)
T0BA0 217:359 JLINK_ReadReg(FPS18)  returns 0x00000000 (0000ms, 3742ms total)
T0BA0 217:359 JLINK_ReadReg(FPS19)  returns 0x00000000 (0000ms, 3742ms total)
T0BA0 217:359 JLINK_ReadReg(FPS20)  returns 0x00000000 (0000ms, 3742ms total)
T0BA0 217:359 JLINK_ReadReg(FPS21)  returns 0x00000000 (0000ms, 3742ms total)
T0BA0 217:359 JLINK_ReadReg(FPS22)  returns 0x00000000 (0000ms, 3742ms total)
T0BA0 217:359 JLINK_ReadReg(FPS23)  returns 0x00000000 (0000ms, 3742ms total)
T0BA0 217:359 JLINK_ReadReg(FPS24)  returns 0x00000000 (0000ms, 3742ms total)
T0BA0 217:359 JLINK_ReadReg(FPS25)  returns 0x00000000 (0000ms, 3742ms total)
T0BA0 217:359 JLINK_ReadReg(FPS26)  returns 0x00000000 (0000ms, 3742ms total)
T0BA0 217:359 JLINK_ReadReg(FPS27)  returns 0x00000000 (0000ms, 3742ms total)
T0BA0 217:359 JLINK_ReadReg(FPS28)  returns 0x00000000 (0000ms, 3742ms total)
T0BA0 217:359 JLINK_ReadReg(FPS29)  returns 0x00000000 (0000ms, 3742ms total)
T0BA0 217:359 JLINK_ReadReg(FPS30)  returns 0x00000000 (0000ms, 3742ms total)
T0BA0 217:359 JLINK_ReadReg(FPS31)  returns 0x00000000 (0000ms, 3742ms total)
T08C0 217:359 JLINK_ReadMemEx(0x200027DC, 0x0004 Bytes, ..., Flags = 0x02000000) -- CPU_ReadMem(4 bytes @ 0x200027DC) - Data: FF 01 00 08  returns 0x04 (0001ms, 3743ms total)
T08C0 217:360 JLINK_ReadMemU32(0xE0001004, 0x0001 Items, ...) -- CPU_ReadMem(4 bytes @ 0xE0001004) - Data: D0 17 00 00  returns 1 (0001ms, 3744ms total)
T0BA0 217:559 JLINK_ReadMemEx(0x08000A76, 0x0002 Bytes, ..., Flags = 0x02000000) -- CPU_ReadMem(64 bytes @ 0x08000A40) -- Updating DA cache (64 bytes @ 0x08000A40) -- Read from DA cache (2 bytes @ 0x08000A76) - Data: 03 20  returns 0x02 (0001ms, 3745ms total)
T0BA0 217:560 JLINK_ReadMemEx(0x08000A78, 0x003C Bytes, ..., Flags = 0x02000000) -- CPU_ReadMem(64 bytes @ 0x08000A80) -- Updating DA cache (64 bytes @ 0x08000A80) -- Read from DA cache (60 bytes @ 0x08000A78) - Data: 00 F0 80 F8 00 F0 7C FB 01 20 FF F7 29 FD 00 20 ...  returns 0x3C (0001ms, 3746ms total)
T0BA0 217:561 JLINK_ReadMemEx(0x08000A78, 0x0002 Bytes, ..., Flags = 0x02000000) -- Read from DA cache (2 bytes @ 0x08000A78) - Data: 00 F0  returns 0x02 (0000ms, 3746ms total)
T0BA0 217:561 JLINK_ReadMemEx(0x08000A76, 0x0002 Bytes, ..., Flags = 0x02000000) -- Read from DA cache (2 bytes @ 0x08000A76) - Data: 03 20  returns 0x02 (0000ms, 3746ms total)
T0BA0 217:561 JLINK_Step() -- Read from DA cache (2 bytes @ 0x08000A76) -- Simulated  returns 0x00 (0000ms, 3746ms total)
T0BA0 217:561 JLINK_ReadReg(R15 (PC))  returns 0x08000A78 (0000ms, 3746ms total)
T0BA0 217:561 JLINK_ReadReg(XPSR)  returns 0x21000000 (0000ms, 3746ms total)
T0BA0 217:561 JLINK_ReadMemEx(0x08000A78, 0x003C Bytes, ..., Flags = 0x02000000) -- Read from DA cache (60 bytes @ 0x08000A78) - Data: 00 F0 80 F8 00 F0 7C FB 01 20 FF F7 29 FD 00 20 ...  returns 0x3C (0000ms, 3746ms total)
T0BA0 217:561 JLINK_ReadMemEx(0x08000A78, 0x0002 Bytes, ..., Flags = 0x02000000) -- Read from DA cache (2 bytes @ 0x08000A78) - Data: 00 F0  returns 0x02 (0000ms, 3746ms total)
T0BA0 217:561 JLINK_ReadMemEx(0x08000A7A, 0x0002 Bytes, ..., Flags = 0x02000000) -- Read from DA cache (2 bytes @ 0x08000A7A) - Data: 80 F8  returns 0x02 (0001ms, 3747ms total)
T0BA0 217:562 JLINK_SetBPEx(Addr = 0x08000A7C, Type = 0xFFFFFFF2)  returns 0x00000002 (0000ms, 3747ms total)
T0BA0 217:562 JLINK_Go() -- CPU_WriteMem(4 bytes @ 0xE0002000) -- CPU_ReadMem(4 bytes @ 0xE0001000) -- CPU_WriteMem(4 bytes @ 0xE0002008) -- CPU_WriteMem(4 bytes @ 0xE0001004) (0005ms, 3752ms total)
T0BA0 217:668 JLINK_IsHalted()  returns TRUE (0005ms, 3757ms total)
T0BA0 217:673 JLINK_Halt()  returns 0x00 (0000ms, 3752ms total)
T0BA0 217:673 JLINK_IsHalted()  returns TRUE (0000ms, 3752ms total)
T0BA0 217:673 JLINK_IsHalted()  returns TRUE (0000ms, 3752ms total)
T0BA0 217:673 JLINK_IsHalted()  returns TRUE (0000ms, 3752ms total)
T0BA0 217:673 JLINK_ReadReg(R15 (PC))  returns 0x08000A7C (0000ms, 3752ms total)
T0BA0 217:673 JLINK_ReadReg(XPSR)  returns 0x21000000 (0000ms, 3752ms total)
T0BA0 217:673 JLINK_ClrBPEx(BPHandle = 0x00000002)  returns 0x00 (0000ms, 3752ms total)
T0BA0 217:673 JLINK_ReadMemU32(0xE000ED30, 0x0001 Items, ...) -- CPU_ReadMem(4 bytes @ 0xE000ED30) - Data: 02 00 00 00  returns 1 (0001ms, 3753ms total)
T0BA0 217:674 JLINK_ReadMemU32(0xE0001028, 0x0001 Items, ...) -- CPU_ReadMem(4 bytes @ 0xE0001028) - Data: 00 00 00 00  returns 1 (0001ms, 3754ms total)
T0BA0 217:675 JLINK_ReadMemU32(0xE0001038, 0x0001 Items, ...) -- CPU_ReadMem(4 bytes @ 0xE0001038) - Data: 00 02 00 00  returns 1 (0002ms, 3756ms total)
T0BA0 217:677 JLINK_ReadMemU32(0xE0001048, 0x0001 Items, ...) -- CPU_ReadMem(4 bytes @ 0xE0001048) - Data: 00 00 00 00  returns 1 (0001ms, 3757ms total)
T0BA0 217:678 JLINK_ReadMemU32(0xE0001058, 0x0001 Items, ...) -- CPU_ReadMem(4 bytes @ 0xE0001058) - Data: 00 00 00 00  returns 1 (0001ms, 3758ms total)
T0BA0 217:679 JLINK_ReadReg(R0)  returns 0x00000003 (0000ms, 3758ms total)
T0BA0 217:679 JLINK_ReadReg(R1)  returns 0x05FA0300 (0000ms, 3758ms total)
T0BA0 217:679 JLINK_ReadReg(R2)  returns 0x00000003 (0000ms, 3758ms total)
T0BA0 217:679 JLINK_ReadReg(R3)  returns 0xE000ED0C (0000ms, 3758ms total)
T0BA0 217:679 JLINK_ReadReg(R4)  returns 0x00000000 (0000ms, 3758ms total)
T0BA0 217:679 JLINK_ReadReg(R5)  returns 0x20002180 (0000ms, 3758ms total)
T0BA0 217:679 JLINK_ReadReg(R6)  returns 0x00000000 (0000ms, 3758ms total)
T0BA0 217:679 JLINK_ReadReg(R7)  returns 0x00000000 (0000ms, 3758ms total)
T0BA0 217:679 JLINK_ReadReg(R8)  returns 0x00000000 (0000ms, 3758ms total)
T0BA0 217:679 JLINK_ReadReg(R9)  returns 0x00000000 (0000ms, 3758ms total)
T0BA0 217:679 JLINK_ReadReg(R10)  returns 0x08001C94 (0000ms, 3758ms total)
T0BA0 217:679 JLINK_ReadReg(R11)  returns 0x00000000 (0000ms, 3758ms total)
T0BA0 217:679 JLINK_ReadReg(R12)  returns 0x200021C0 (0000ms, 3758ms total)
T0BA0 217:679 JLINK_ReadReg(R13 (SP))  returns 0x200027D0 (0000ms, 3758ms total)
T0BA0 217:679 JLINK_ReadReg(R14)  returns 0x08000A7D (0000ms, 3758ms total)
T0BA0 217:679 JLINK_ReadReg(R15 (PC))  returns 0x08000A7C (0000ms, 3758ms total)
T0BA0 217:679 JLINK_ReadReg(XPSR)  returns 0x21000000 (0000ms, 3758ms total)
T0BA0 217:679 JLINK_ReadReg(MSP)  returns 0x200027D0 (0000ms, 3758ms total)
T0BA0 217:679 JLINK_ReadReg(PSP)  returns 0x00000000 (0000ms, 3758ms total)
T0BA0 217:679 JLINK_ReadReg(CFBP)  returns 0x04000000 (0000ms, 3758ms total)
T0BA0 217:679 JLINK_ReadReg(FPSCR)  returns 0x03000000 (0006ms, 3764ms total)
T0BA0 217:685 JLINK_ReadReg(FPS0)  returns 0x00000000 (0000ms, 3764ms total)
T0BA0 217:685 JLINK_ReadReg(FPS1)  returns 0x00000000 (0000ms, 3764ms total)
T0BA0 217:685 JLINK_ReadReg(FPS2)  returns 0x00000000 (0000ms, 3764ms total)
T0BA0 217:685 JLINK_ReadReg(FPS3)  returns 0x00000000 (0000ms, 3764ms total)
T0BA0 217:685 JLINK_ReadReg(FPS4)  returns 0x00000000 (0001ms, 3765ms total)
T0BA0 217:686 JLINK_ReadReg(FPS5)  returns 0x00000000 (0000ms, 3765ms total)
T0BA0 217:686 JLINK_ReadReg(FPS6)  returns 0x00000000 (0000ms, 3765ms total)
T0BA0 217:686 JLINK_ReadReg(FPS7)  returns 0x00000000 (0000ms, 3765ms total)
T0BA0 217:686 JLINK_ReadReg(FPS8)  returns 0x00000000 (0000ms, 3765ms total)
T0BA0 217:686 JLINK_ReadReg(FPS9)  returns 0x00000000 (0000ms, 3765ms total)
T0BA0 217:686 JLINK_ReadReg(FPS10)  returns 0x00000000 (0000ms, 3765ms total)
T0BA0 217:686 JLINK_ReadReg(FPS11)  returns 0x00000000 (0000ms, 3765ms total)
T0BA0 217:686 JLINK_ReadReg(FPS12)  returns 0x00000000 (0000ms, 3765ms total)
T0BA0 217:686 JLINK_ReadReg(FPS13)  returns 0x00000000 (0000ms, 3765ms total)
T0BA0 217:686 JLINK_ReadReg(FPS14)  returns 0x00000000 (0000ms, 3765ms total)
T0BA0 217:686 JLINK_ReadReg(FPS15)  returns 0x00000000 (0000ms, 3765ms total)
T0BA0 217:686 JLINK_ReadReg(FPS16)  returns 0x00000000 (0000ms, 3765ms total)
T0BA0 217:686 JLINK_ReadReg(FPS17)  returns 0x00000000 (0000ms, 3765ms total)
T0BA0 217:686 JLINK_ReadReg(FPS18)  returns 0x00000000 (0000ms, 3765ms total)
T0BA0 217:686 JLINK_ReadReg(FPS19)  returns 0x00000000 (0000ms, 3765ms total)
T0BA0 217:686 JLINK_ReadReg(FPS20)  returns 0x00000000 (0000ms, 3765ms total)
T0BA0 217:686 JLINK_ReadReg(FPS21)  returns 0x00000000 (0000ms, 3765ms total)
T0BA0 217:686 JLINK_ReadReg(FPS22)  returns 0x00000000 (0000ms, 3765ms total)
T0BA0 217:686 JLINK_ReadReg(FPS23)  returns 0x00000000 (0000ms, 3765ms total)
T0BA0 217:686 JLINK_ReadReg(FPS24)  returns 0x00000000 (0000ms, 3765ms total)
T0BA0 217:686 JLINK_ReadReg(FPS25)  returns 0x00000000 (0000ms, 3765ms total)
T0BA0 217:686 JLINK_ReadReg(FPS26)  returns 0x00000000 (0000ms, 3765ms total)
T0BA0 217:686 JLINK_ReadReg(FPS27)  returns 0x00000000 (0000ms, 3765ms total)
T0BA0 217:686 JLINK_ReadReg(FPS28)  returns 0x00000000 (0000ms, 3765ms total)
T0BA0 217:686 JLINK_ReadReg(FPS29)  returns 0x00000000 (0000ms, 3765ms total)
T0BA0 217:686 JLINK_ReadReg(FPS30)  returns 0x00000000 (0000ms, 3765ms total)
T0BA0 217:686 JLINK_ReadReg(FPS31)  returns 0x00000000 (0000ms, 3765ms total)
T08C0 217:686 JLINK_ReadMemEx(0x200027DC, 0x0004 Bytes, ..., Flags = 0x02000000) -- CPU_ReadMem(4 bytes @ 0x200027DC) - Data: FF 01 00 08  returns 0x04 (0001ms, 3766ms total)
T08C0 217:687 JLINK_ReadMemU32(0xE0001004, 0x0001 Items, ...) -- CPU_ReadMem(4 bytes @ 0xE0001004) - Data: E9 17 00 00  returns 1 (0001ms, 3767ms total)
T08C0 217:688 JLINK_ReadMemEx(0x08000A7C, 0x003C Bytes, ..., Flags = 0x02000000) -- CPU_ReadMem(128 bytes @ 0x08000A40) -- Updating DA cache (128 bytes @ 0x08000A40) -- Read from DA cache (60 bytes @ 0x08000A7C) - Data: 00 F0 7C FB 01 20 FF F7 29 FD 00 20 FF F7 26 FD ...  returns 0x3C (0002ms, 3769ms total)
T08C0 217:690 JLINK_ReadMemEx(0x08000A7C, 0x0002 Bytes, ..., Flags = 0x02000000) -- Read from DA cache (2 bytes @ 0x08000A7C) - Data: 00 F0  returns 0x02 (0000ms, 3769ms total)
T08C0 217:690 JLINK_ReadMemEx(0x08000A7E, 0x0002 Bytes, ..., Flags = 0x02000000) -- Read from DA cache (2 bytes @ 0x08000A7E) - Data: 7C FB  returns 0x02 (0000ms, 3769ms total)
T0BA0 217:733 JLINK_ReadMemEx(0x08000A7C, 0x0002 Bytes, ..., Flags = 0x02000000) -- Read from DA cache (2 bytes @ 0x08000A7C) - Data: 00 F0  returns 0x02 (0000ms, 3769ms total)
T0BA0 217:733 JLINK_SetBPEx(Addr = 0x08000A80, Type = 0xFFFFFFF2)  returns 0x00000003 (0000ms, 3769ms total)
T0BA0 217:733 JLINK_Go() -- CPU_WriteMem(4 bytes @ 0xE0002000) -- CPU_ReadMem(4 bytes @ 0xE0001000) -- CPU_WriteMem(4 bytes @ 0xE0002008) (0003ms, 3772ms total)
T0BA0 217:837 JLINK_IsHalted()  returns TRUE (0004ms, 3776ms total)
T0BA0 217:841 JLINK_Halt()  returns 0x00 (0000ms, 3772ms total)
T0BA0 217:841 JLINK_IsHalted()  returns TRUE (0000ms, 3772ms total)
T0BA0 217:841 JLINK_IsHalted()  returns TRUE (0000ms, 3772ms total)
T0BA0 217:841 JLINK_IsHalted()  returns TRUE (0000ms, 3772ms total)
T0BA0 217:841 JLINK_ReadReg(R15 (PC))  returns 0x08000A80 (0000ms, 3772ms total)
T0BA0 217:841 JLINK_ReadReg(XPSR)  returns 0x01000000 (0000ms, 3772ms total)
T0BA0 217:841 JLINK_ClrBPEx(BPHandle = 0x00000003)  returns 0x00 (0000ms, 3772ms total)
T0BA0 217:841 JLINK_ReadMemU32(0xE000ED30, 0x0001 Items, ...) -- CPU_ReadMem(4 bytes @ 0xE000ED30) - Data: 02 00 00 00  returns 1 (0002ms, 3774ms total)
T0BA0 217:843 JLINK_ReadMemU32(0xE0001028, 0x0001 Items, ...) -- CPU_ReadMem(4 bytes @ 0xE0001028) - Data: 00 00 00 00  returns 1 (0001ms, 3775ms total)
T0BA0 217:844 JLINK_ReadMemU32(0xE0001038, 0x0001 Items, ...) -- CPU_ReadMem(4 bytes @ 0xE0001038) - Data: 00 02 00 00  returns 1 (0001ms, 3776ms total)
T0BA0 217:845 JLINK_ReadMemU32(0xE0001048, 0x0001 Items, ...) -- CPU_ReadMem(4 bytes @ 0xE0001048) - Data: 00 00 00 00  returns 1 (0002ms, 3778ms total)
T0BA0 217:847 JLINK_ReadMemU32(0xE0001058, 0x0001 Items, ...) -- CPU_ReadMem(4 bytes @ 0xE0001058) - Data: 00 00 00 00  returns 1 (0001ms, 3779ms total)
T0BA0 217:848 JLINK_ReadReg(R0)  returns 0x02DC6C00 (0000ms, 3779ms total)
T0BA0 217:848 JLINK_ReadReg(R1)  returns 0x2000003C (0000ms, 3779ms total)
T0BA0 217:848 JLINK_ReadReg(R2)  returns 0x40021000 (0000ms, 3779ms total)
T0BA0 217:848 JLINK_ReadReg(R3)  returns 0x02000000 (0000ms, 3779ms total)
T0BA0 217:848 JLINK_ReadReg(R4)  returns 0x00000000 (0000ms, 3779ms total)
T0BA0 217:848 JLINK_ReadReg(R5)  returns 0x20002180 (0000ms, 3779ms total)
T0BA0 217:848 JLINK_ReadReg(R6)  returns 0x00000000 (0000ms, 3779ms total)
T0BA0 217:849 JLINK_ReadReg(R7)  returns 0x00000000 (0000ms, 3780ms total)
T0BA0 217:849 JLINK_ReadReg(R8)  returns 0x00000000 (0000ms, 3780ms total)
T0BA0 217:849 JLINK_ReadReg(R9)  returns 0x00000000 (0000ms, 3780ms total)
T0BA0 217:849 JLINK_ReadReg(R10)  returns 0x08001C94 (0000ms, 3780ms total)
T0BA0 217:849 JLINK_ReadReg(R11)  returns 0x00000000 (0000ms, 3780ms total)
T0BA0 217:849 JLINK_ReadReg(R12)  returns 0x200021C0 (0000ms, 3780ms total)
T0BA0 217:849 JLINK_ReadReg(R13 (SP))  returns 0x200027D0 (0000ms, 3780ms total)
T0BA0 217:849 JLINK_ReadReg(R14)  returns 0x080011F7 (0000ms, 3780ms total)
T0BA0 217:849 JLINK_ReadReg(R15 (PC))  returns 0x08000A80 (0000ms, 3780ms total)
T0BA0 217:849 JLINK_ReadReg(XPSR)  returns 0x01000000 (0000ms, 3780ms total)
T0BA0 217:849 JLINK_ReadReg(MSP)  returns 0x200027D0 (0000ms, 3780ms total)
T0BA0 217:849 JLINK_ReadReg(PSP)  returns 0x00000000 (0000ms, 3780ms total)
T0BA0 217:849 JLINK_ReadReg(CFBP)  returns 0x04000000 (0001ms, 3781ms total)
T0BA0 217:850 JLINK_ReadReg(FPSCR)  returns 0x03000000 (0007ms, 3788ms total)
T0BA0 217:857 JLINK_ReadReg(FPS0)  returns 0x00000000 (0000ms, 3788ms total)
T0BA0 217:857 JLINK_ReadReg(FPS1)  returns 0x00000000 (0000ms, 3788ms total)
T0BA0 217:857 JLINK_ReadReg(FPS2)  returns 0x00000000 (0000ms, 3788ms total)
T0BA0 217:857 JLINK_ReadReg(FPS3)  returns 0x00000000 (0000ms, 3788ms total)
T0BA0 217:857 JLINK_ReadReg(FPS4)  returns 0x00000000 (0000ms, 3788ms total)
T0BA0 217:857 JLINK_ReadReg(FPS5)  returns 0x00000000 (0000ms, 3788ms total)
T0BA0 217:857 JLINK_ReadReg(FPS6)  returns 0x00000000 (0000ms, 3788ms total)
T0BA0 217:857 JLINK_ReadReg(FPS7)  returns 0x00000000 (0000ms, 3788ms total)
T0BA0 217:857 JLINK_ReadReg(FPS8)  returns 0x00000000 (0000ms, 3788ms total)
T0BA0 217:857 JLINK_ReadReg(FPS9)  returns 0x00000000 (0000ms, 3788ms total)
T0BA0 217:857 JLINK_ReadReg(FPS10)  returns 0x00000000 (0001ms, 3789ms total)
T0BA0 217:858 JLINK_ReadReg(FPS11)  returns 0x00000000 (0000ms, 3789ms total)
T0BA0 217:858 JLINK_ReadReg(FPS12)  returns 0x00000000 (0000ms, 3789ms total)
T0BA0 217:858 JLINK_ReadReg(FPS13)  returns 0x00000000 (0000ms, 3789ms total)
T0BA0 217:858 JLINK_ReadReg(FPS14)  returns 0x00000000 (0000ms, 3789ms total)
T0BA0 217:858 JLINK_ReadReg(FPS15)  returns 0x00000000 (0000ms, 3789ms total)
T0BA0 217:858 JLINK_ReadReg(FPS16)  returns 0x00000000 (0000ms, 3789ms total)
T0BA0 217:858 JLINK_ReadReg(FPS17)  returns 0x00000000 (0000ms, 3789ms total)
T0BA0 217:858 JLINK_ReadReg(FPS18)  returns 0x00000000 (0000ms, 3789ms total)
T0BA0 217:858 JLINK_ReadReg(FPS19)  returns 0x00000000 (0000ms, 3789ms total)
T0BA0 217:858 JLINK_ReadReg(FPS20)  returns 0x00000000 (0000ms, 3789ms total)
T0BA0 217:858 JLINK_ReadReg(FPS21)  returns 0x00000000 (0000ms, 3789ms total)
T0BA0 217:858 JLINK_ReadReg(FPS22)  returns 0x00000000 (0000ms, 3789ms total)
T0BA0 217:858 JLINK_ReadReg(FPS23)  returns 0x00000000 (0000ms, 3789ms total)
T0BA0 217:859 JLINK_ReadReg(FPS24)  returns 0x00000000 (0000ms, 3789ms total)
T0BA0 217:859 JLINK_ReadReg(FPS25)  returns 0x00000000 (0000ms, 3789ms total)
T0BA0 217:859 JLINK_ReadReg(FPS26)  returns 0x00000000 (0000ms, 3789ms total)
T0BA0 217:859 JLINK_ReadReg(FPS27)  returns 0x00000000 (0000ms, 3789ms total)
T0BA0 217:859 JLINK_ReadReg(FPS28)  returns 0x00000000 (0000ms, 3789ms total)
T0BA0 217:859 JLINK_ReadReg(FPS29)  returns 0x00000000 (0000ms, 3789ms total)
T0BA0 217:859 JLINK_ReadReg(FPS30)  returns 0x00000000 (0000ms, 3789ms total)
T0BA0 217:859 JLINK_ReadReg(FPS31)  returns 0x00000000 (0000ms, 3789ms total)
T08C0 217:859 JLINK_ReadMemEx(0x200027DC, 0x0004 Bytes, ..., Flags = 0x02000000) -- CPU_ReadMem(4 bytes @ 0x200027DC) - Data: FF 01 00 08  returns 0x04 (0002ms, 3791ms total)
T08C0 217:861 JLINK_ReadMemU32(0xE0001004, 0x0001 Items, ...) -- CPU_ReadMem(4 bytes @ 0xE0001004) - Data: F1 5D 00 00  returns 1 (0001ms, 3792ms total)
T08C0 217:862 JLINK_ReadMemEx(0x08000A80, 0x003C Bytes, ..., Flags = 0x02000000) -- CPU_ReadMem(64 bytes @ 0x08000A80) -- Updating DA cache (64 bytes @ 0x08000A80) -- Read from DA cache (60 bytes @ 0x08000A80) - Data: 01 20 FF F7 29 FD 00 20 FF F7 26 FD FF F7 18 FF ...  returns 0x3C (0002ms, 3794ms total)
T08C0 217:864 JLINK_ReadMemEx(0x08000A80, 0x0002 Bytes, ..., Flags = 0x02000000) -- Read from DA cache (2 bytes @ 0x08000A80) - Data: 01 20  returns 0x02 (0000ms, 3794ms total)
T08C0 217:864 JLINK_ReadMemEx(0x08000A82, 0x0002 Bytes, ..., Flags = 0x02000000) -- Read from DA cache (2 bytes @ 0x08000A82) - Data: FF F7  returns 0x02 (0000ms, 3794ms total)
T08C0 217:864 JLINK_ReadMemEx(0x08000A82, 0x0002 Bytes, ..., Flags = 0x02000000) -- Read from DA cache (2 bytes @ 0x08000A82) - Data: FF F7  returns 0x02 (0000ms, 3794ms total)
T08C0 217:864 JLINK_ReadMemEx(0x08000A84, 0x003C Bytes, ..., Flags = 0x02000000) -- Read from DA cache (60 bytes @ 0x08000A84) - Data: 29 FD 00 20 FF F7 26 FD FF F7 18 FF 64 20 FF F7 ...  returns 0x3C (0000ms, 3794ms total)
T08C0 217:864 JLINK_ReadMemEx(0x08000A84, 0x0002 Bytes, ..., Flags = 0x02000000) -- Read from DA cache (2 bytes @ 0x08000A84) - Data: 29 FD  returns 0x02 (0000ms, 3794ms total)
T0BA0 218:160 JLINK_ReadMemEx(0x08000A80, 0x0002 Bytes, ..., Flags = 0x02000000) -- Read from DA cache (2 bytes @ 0x08000A80) - Data: 01 20  returns 0x02 (0000ms, 3794ms total)
T0BA0 218:160 JLINK_Step() -- Read from DA cache (2 bytes @ 0x08000A80) -- Simulated  returns 0x00 (0000ms, 3794ms total)
T0BA0 218:160 JLINK_ReadReg(R15 (PC))  returns 0x08000A82 (0000ms, 3794ms total)
T0BA0 218:160 JLINK_ReadReg(XPSR)  returns 0x01000000 (0000ms, 3794ms total)
T0BA0 218:160 JLINK_SetBPEx(Addr = 0x08000A86, Type = 0xFFFFFFF2)  returns 0x00000004 (0000ms, 3794ms total)
T0BA0 218:160 JLINK_Go() -- CPU_WriteMem(4 bytes @ 0xE0002000) -- CPU_ReadMem(4 bytes @ 0xE0001000) -- CPU_WriteMem(4 bytes @ 0xE0002008) -- CPU_WriteMem(4 bytes @ 0xE0001004) (0005ms, 3799ms total)
T0BA0 218:266 JLINK_IsHalted()  returns TRUE (0004ms, 3804ms total)
T0BA0 218:270 JLINK_Halt()  returns 0x00 (0000ms, 3800ms total)
T0BA0 218:270 JLINK_IsHalted()  returns TRUE (0000ms, 3800ms total)
T0BA0 218:270 JLINK_IsHalted()  returns TRUE (0000ms, 3800ms total)
T0BA0 218:270 JLINK_IsHalted()  returns TRUE (0000ms, 3800ms total)
T0BA0 218:270 JLINK_ReadReg(R15 (PC))  returns 0x08000A86 (0000ms, 3800ms total)
T0BA0 218:270 JLINK_ReadReg(XPSR)  returns 0x81000000 (0000ms, 3800ms total)
T0BA0 218:270 JLINK_ClrBPEx(BPHandle = 0x00000004)  returns 0x00 (0000ms, 3800ms total)
T0BA0 218:270 JLINK_ReadMemU32(0xE000ED30, 0x0001 Items, ...) -- CPU_ReadMem(4 bytes @ 0xE000ED30) - Data: 02 00 00 00  returns 1 (0001ms, 3801ms total)
T0BA0 218:271 JLINK_ReadMemU32(0xE0001028, 0x0001 Items, ...) -- CPU_ReadMem(4 bytes @ 0xE0001028) - Data: 00 00 00 00  returns 1 (0001ms, 3802ms total)
T0BA0 218:272 JLINK_ReadMemU32(0xE0001038, 0x0001 Items, ...) -- CPU_ReadMem(4 bytes @ 0xE0001038) - Data: 00 02 00 00  returns 1 (0000ms, 3802ms total)
T0BA0 218:272 JLINK_ReadMemU32(0xE0001048, 0x0001 Items, ...) -- CPU_ReadMem(4 bytes @ 0xE0001048) - Data: 00 00 00 00  returns 1 (0001ms, 3803ms total)
T0BA0 218:273 JLINK_ReadMemU32(0xE0001058, 0x0001 Items, ...) -- CPU_ReadMem(4 bytes @ 0xE0001058) - Data: 00 00 00 00  returns 1 (0001ms, 3804ms total)
T0BA0 218:274 JLINK_ReadReg(R0)  returns 0x40010C00 (0000ms, 3804ms total)
T0BA0 218:274 JLINK_ReadReg(R1)  returns 0x00000008 (0000ms, 3804ms total)
T0BA0 218:274 JLINK_ReadReg(R2)  returns 0x00000080 (0000ms, 3804ms total)
T0BA0 218:274 JLINK_ReadReg(R3)  returns 0x01100400 (0000ms, 3804ms total)
T0BA0 218:274 JLINK_ReadReg(R4)  returns 0x00000000 (0000ms, 3804ms total)
T0BA0 218:274 JLINK_ReadReg(R5)  returns 0x20002180 (0000ms, 3804ms total)
T0BA0 218:274 JLINK_ReadReg(R6)  returns 0x00000000 (0000ms, 3804ms total)
T0BA0 218:274 JLINK_ReadReg(R7)  returns 0x00000000 (0000ms, 3804ms total)
T0BA0 218:274 JLINK_ReadReg(R8)  returns 0x00000000 (0000ms, 3804ms total)
T0BA0 218:274 JLINK_ReadReg(R9)  returns 0x00000000 (0000ms, 3804ms total)
T0BA0 218:274 JLINK_ReadReg(R10)  returns 0x08001C94 (0000ms, 3804ms total)
T0BA0 218:274 JLINK_ReadReg(R11)  returns 0x00000000 (0000ms, 3804ms total)
T0BA0 218:274 JLINK_ReadReg(R12)  returns 0x200021C0 (0000ms, 3804ms total)
T0BA0 218:274 JLINK_ReadReg(R13 (SP))  returns 0x200027D0 (0000ms, 3804ms total)
T0BA0 218:274 JLINK_ReadReg(R14)  returns 0x0800051B (0000ms, 3804ms total)
T0BA0 218:274 JLINK_ReadReg(R15 (PC))  returns 0x08000A86 (0000ms, 3804ms total)
T0BA0 218:274 JLINK_ReadReg(XPSR)  returns 0x81000000 (0000ms, 3804ms total)
T0BA0 218:274 JLINK_ReadReg(MSP)  returns 0x200027D0 (0000ms, 3804ms total)
T0BA0 218:274 JLINK_ReadReg(PSP)  returns 0x00000000 (0000ms, 3804ms total)
T0BA0 218:274 JLINK_ReadReg(CFBP)  returns 0x04000000 (0000ms, 3804ms total)
T0BA0 218:274 JLINK_ReadReg(FPSCR)  returns 0x03000000 (0008ms, 3812ms total)
T0BA0 218:282 JLINK_ReadReg(FPS0)  returns 0x00000000 (0000ms, 3812ms total)
T0BA0 218:282 JLINK_ReadReg(FPS1)  returns 0x00000000 (0000ms, 3812ms total)
T0BA0 218:282 JLINK_ReadReg(FPS2)  returns 0x00000000 (0000ms, 3812ms total)
T0BA0 218:282 JLINK_ReadReg(FPS3)  returns 0x00000000 (0000ms, 3812ms total)
T0BA0 218:282 JLINK_ReadReg(FPS4)  returns 0x00000000 (0000ms, 3812ms total)
T0BA0 218:282 JLINK_ReadReg(FPS5)  returns 0x00000000 (0000ms, 3812ms total)
T0BA0 218:282 JLINK_ReadReg(FPS6)  returns 0x00000000 (0000ms, 3812ms total)
T0BA0 218:282 JLINK_ReadReg(FPS7)  returns 0x00000000 (0000ms, 3812ms total)
T0BA0 218:282 JLINK_ReadReg(FPS8)  returns 0x00000000 (0000ms, 3812ms total)
T0BA0 218:282 JLINK_ReadReg(FPS9)  returns 0x00000000 (0000ms, 3812ms total)
T0BA0 218:282 JLINK_ReadReg(FPS10)  returns 0x00000000 (0000ms, 3812ms total)
T0BA0 218:282 JLINK_ReadReg(FPS11)  returns 0x00000000 (0000ms, 3812ms total)
T0BA0 218:282 JLINK_ReadReg(FPS12)  returns 0x00000000 (0000ms, 3812ms total)
T0BA0 218:282 JLINK_ReadReg(FPS13)  returns 0x00000000 (0000ms, 3812ms total)
T0BA0 218:282 JLINK_ReadReg(FPS14)  returns 0x00000000 (0000ms, 3812ms total)
T0BA0 218:282 JLINK_ReadReg(FPS15)  returns 0x00000000 (0000ms, 3812ms total)
T0BA0 218:282 JLINK_ReadReg(FPS16)  returns 0x00000000 (0000ms, 3812ms total)
T0BA0 218:282 JLINK_ReadReg(FPS17)  returns 0x00000000 (0000ms, 3812ms total)
T0BA0 218:282 JLINK_ReadReg(FPS18)  returns 0x00000000 (0000ms, 3812ms total)
T0BA0 218:282 JLINK_ReadReg(FPS19)  returns 0x00000000 (0000ms, 3812ms total)
T0BA0 218:282 JLINK_ReadReg(FPS20)  returns 0x00000000 (0000ms, 3812ms total)
T0BA0 218:282 JLINK_ReadReg(FPS21)  returns 0x00000000 (0000ms, 3812ms total)
T0BA0 218:282 JLINK_ReadReg(FPS22)  returns 0x00000000 (0000ms, 3812ms total)
T0BA0 218:282 JLINK_ReadReg(FPS23)  returns 0x00000000 (0000ms, 3812ms total)
T0BA0 218:282 JLINK_ReadReg(FPS24)  returns 0x00000000 (0000ms, 3812ms total)
T0BA0 218:282 JLINK_ReadReg(FPS25)  returns 0x00000000 (0000ms, 3812ms total)
T0BA0 218:282 JLINK_ReadReg(FPS26)  returns 0x00000000 (0000ms, 3812ms total)
T0BA0 218:282 JLINK_ReadReg(FPS27)  returns 0x00000000 (0000ms, 3812ms total)
T0BA0 218:282 JLINK_ReadReg(FPS28)  returns 0x00000000 (0000ms, 3812ms total)
T0BA0 218:282 JLINK_ReadReg(FPS29)  returns 0x00000000 (0000ms, 3812ms total)
T0BA0 218:282 JLINK_ReadReg(FPS30)  returns 0x00000000 (0000ms, 3812ms total)
T0BA0 218:282 JLINK_ReadReg(FPS31)  returns 0x00000000 (0000ms, 3812ms total)
T08C0 218:282 JLINK_ReadMemEx(0x200027DC, 0x0004 Bytes, ..., Flags = 0x02000000) -- CPU_ReadMem(4 bytes @ 0x200027DC) - Data: FF 01 00 08  returns 0x04 (0001ms, 3813ms total)
T08C0 218:283 JLINK_ReadMemU32(0xE0001004, 0x0001 Items, ...) -- CPU_ReadMem(4 bytes @ 0xE0001004) - Data: EF 5E 00 00  returns 1 (0001ms, 3814ms total)
T08C0 218:284 JLINK_ReadMemEx(0x08000A86, 0x0002 Bytes, ..., Flags = 0x02000000) -- CPU_ReadMem(64 bytes @ 0x08000A80) -- Updating DA cache (64 bytes @ 0x08000A80) -- Read from DA cache (2 bytes @ 0x08000A86) - Data: 00 20  returns 0x02 (0001ms, 3815ms total)
T08C0 218:285 JLINK_ReadMemEx(0x08000A88, 0x003C Bytes, ..., Flags = 0x02000000) -- CPU_ReadMem(64 bytes @ 0x08000AC0) -- Updating DA cache (64 bytes @ 0x08000AC0) -- Read from DA cache (60 bytes @ 0x08000A88) - Data: FF F7 26 FD FF F7 18 FF 64 20 FF F7 31 FF 4F F4 ...  returns 0x3C (0001ms, 3816ms total)
T08C0 218:286 JLINK_ReadMemEx(0x08000A88, 0x0002 Bytes, ..., Flags = 0x02000000) -- Read from DA cache (2 bytes @ 0x08000A88) - Data: FF F7  returns 0x02 (0000ms, 3816ms total)
T08C0 218:286 JLINK_ReadMemEx(0x08000A88, 0x003C Bytes, ..., Flags = 0x02000000) -- Read from DA cache (60 bytes @ 0x08000A88) - Data: FF F7 26 FD FF F7 18 FF 64 20 FF F7 31 FF 4F F4 ...  returns 0x3C (0000ms, 3816ms total)
T08C0 218:286 JLINK_ReadMemEx(0x08000A88, 0x0002 Bytes, ..., Flags = 0x02000000) -- Read from DA cache (2 bytes @ 0x08000A88) - Data: FF F7  returns 0x02 (0000ms, 3816ms total)
T08C0 218:286 JLINK_ReadMemEx(0x08000A8A, 0x0002 Bytes, ..., Flags = 0x02000000) -- Read from DA cache (2 bytes @ 0x08000A8A) - Data: 26 FD  returns 0x02 (0000ms, 3816ms total)
T0BA0 218:348 JLINK_ReadMemEx(0x08000A86, 0x0002 Bytes, ..., Flags = 0x02000000) -- Read from DA cache (2 bytes @ 0x08000A86) - Data: 00 20  returns 0x02 (0001ms, 3817ms total)
T0BA0 218:349 JLINK_Step() -- Read from DA cache (2 bytes @ 0x08000A86) -- Simulated  returns 0x00 (0000ms, 3817ms total)
T0BA0 218:349 JLINK_ReadReg(R15 (PC))  returns 0x08000A88 (0000ms, 3817ms total)
T0BA0 218:349 JLINK_ReadReg(XPSR)  returns 0x41000000 (0000ms, 3817ms total)
T0BA0 218:349 JLINK_SetBPEx(Addr = 0x08000A8C, Type = 0xFFFFFFF2)  returns 0x00000005 (0000ms, 3817ms total)
T0BA0 218:349 JLINK_Go() -- CPU_WriteMem(4 bytes @ 0xE0002000) -- CPU_ReadMem(4 bytes @ 0xE0001000) -- CPU_WriteMem(4 bytes @ 0xE0002008) -- CPU_WriteMem(4 bytes @ 0xE0001004) (0006ms, 3823ms total)
T0BA0 218:455 JLINK_IsHalted()  returns TRUE (0004ms, 3827ms total)
T0BA0 218:459 JLINK_Halt()  returns 0x00 (0000ms, 3823ms total)
T0BA0 218:459 JLINK_IsHalted()  returns TRUE (0000ms, 3823ms total)
T0BA0 218:459 JLINK_IsHalted()  returns TRUE (0000ms, 3823ms total)
T0BA0 218:459 JLINK_IsHalted()  returns TRUE (0000ms, 3823ms total)
T0BA0 218:459 JLINK_ReadReg(R15 (PC))  returns 0x08000A8C (0000ms, 3823ms total)
T0BA0 218:459 JLINK_ReadReg(XPSR)  returns 0x81000000 (0000ms, 3823ms total)
T0BA0 218:459 JLINK_ClrBPEx(BPHandle = 0x00000005)  returns 0x00 (0000ms, 3823ms total)
